! Touchstone file from project SNStest
! Exported from Ansoft 
# GHZ S MA R 50.000000
! Modal data exported
! Port[1] = Port1
! Port[2] = Port2
1.000000000000000E+001 8.155207245587300E-002 -7.129637605654685E+001 9.936592964977598E-001 -1.618909460027807E+002 9.936592964977599E-001 -1.618909460027807E+002 8.155207245587297E-002 -7.129637605654686E+001 
1.010000000000000E+001 7.423901342433444E-002 -7.290660575751963E+001 9.942062196258413E-001 -1.635633992593947E+002 9.942062196258410E-001 -1.635633992593947E+002 7.423901342433437E-002 -7.290660575751953E+001 
1.020000000000000E+001 6.685488923590778E-002 -7.450492193510445E+001 9.947042558709177E-001 -1.652376821092841E+002 9.947042558709185E-001 -1.652376821092841E+002 6.685488923590824E-002 -7.450492193510421E+001 
1.030000000000000E+001 5.940659442621645E-002 -7.608586851680575E+001 9.951514977512209E-001 -1.669136275936608E+002 9.951514977512201E-001 -1.669136275936608E+002 5.940659442621648E-002 -7.608586851680576E+001 
1.040000000000000E+001 5.190118431500185E-002 -7.764086699875891E+001 9.955462169613735E-001 -1.685910623650488E+002 9.955462169613727E-001 -1.685910623650488E+002 5.190118431500159E-002 -7.764086699875951E+001 
1.050000000000000E+001 4.434588181172960E-002 -7.915552599361911E+001 9.958868729968681E-001 -1.702698073214659E+002 9.958868729968673E-001 -1.702698073214659E+002 4.434588181172954E-002 -7.915552599362013E+001 
1.060000000000000E+001 3.674810859511697E-002 -8.060358022460413E+001 9.961721209240306E-001 -1.719496782726066E+002 9.961721209240310E-001 -1.719496782726066E+002 3.674810859511708E-002 -8.060358022460392E+001 
1.070000000000000E+001 2.911558729425423E-002 -8.193123608083481E+001 9.964008182263417E-001 -1.736304866346594E+002 9.964008182263421E-001 -1.736304866346594E+002 2.911558729425333E-002 -8.193123608083415E+001 
1.080000000000000E+001 2.145669470227956E-002 -8.300787656519245E+001 9.965720306651840E-001 -1.753120401501004E+002 9.965720306651834E-001 -1.753120401501004E+002 2.145669470228053E-002 -8.300787656519383E+001 
1.090000000000000E+001 1.378204900154947E-002 -8.341189985984596E+001 9.966850371012976E-001 -1.769941436285451E+002 9.966850371012975E-001 -1.769941436285451E+002 1.378204900154926E-002 -8.341189985984730E+001 
1.100000000000000E+001 6.118187149359252E-003 -8.060781827118622E+001 9.967393332322629E-001 -1.786765997045189E+002 9.967393332322636E-001 -1.786765997045189E+002 6.118187149359868E-003 -8.060781827118147E+001 
1.110000000000000E+001 1.854738255566464E-003 6.217052664758949E+001 9.967346342110357E-001 1.796407903921649E+002 9.967346342110396E-001 1.796407903921645E+002 1.854738255560855E-003 6.217052664736301E+001 
1.120000000000000E+001 9.385740732998140E-003 8.275278032906844E+001 9.966708761208768E-001 1.779582260578788E+002 9.966708761208764E-001 1.779582260578788E+002 9.385740732998225E-003 8.275278032906964E+001 
1.130000000000000E+001 1.706009678400280E-002 8.343120272617236E+001 9.965482162927463E-001 1.762759065330363E+002 9.965482162927463E-001 1.762759065330362E+002 1.706009678400178E-002 8.343120272617233E+001 
1.140000000000000E+001 2.472851737742736E-002 8.264513606815287E+001 9.963670324620861E-001 1.745940301209152E+002 9.963670324620856E-001 1.745940301209152E+002 2.472851737742740E-002 8.264513606815413E+001 
1.150000000000000E+001 3.237571281200904E-002 8.143594717926194E+001 9.961279207729497E-001 1.729127934120090E+002 9.961279207729495E-001 1.729127934120090E+002 3.237571281200889E-002 8.143594717926150E+001 
1.160000000000000E+001 3.999242398977770E-002 8.004745554562240E+001 9.958316926482678E-001 1.712323905184172E+002 9.958316926482680E-001 1.712323905184172E+002 3.999242398977745E-002 8.004745554562201E+001 
1.170000000000000E+001 4.757063540022351E-002 7.856678392466220E+001 9.954793705555591E-001 1.695530123226757E+002 9.954793705555590E-001 1.695530123226757E+002 4.757063540022395E-002 7.856678392466257E+001 
1.180000000000000E+001 5.510277892843321E-002 7.703287544745234E+001 9.950721827074948E-001 1.678748457452726E+002 9.950721827074948E-001 1.678748457452726E+002 5.510277892843341E-002 7.703287544745263E+001 
1.190000000000000E+001 6.258152990625575E-002 7.546580273282757E+001 9.946115567461654E-001 1.661980730349004E+002 9.946115567461651E-001 1.661980730349004E+002 6.258152990625573E-002 7.546580273282812E+001 
1.200000000000000E+001 6.999974516012168E-002 7.387700090650570E+001 9.940991124685555E-001 1.645228710852582E+002 9.940991124685557E-001 1.645228710852582E+002 6.999974516012163E-002 7.387700090650543E+001 
1.210000000000000E+001 7.735044521257509E-002 7.227349138319276E+001 9.935366536585427E-001 1.628494107819432E+002 9.935366536585427E-001 1.628494107819432E+002 7.735044521257488E-002 7.227349138319285E+001 
1.220000000000000E+001 8.462681251563475E-002 7.065984608440017E+001 9.929261590974974E-001 1.611778563826690E+002 9.929261590974970E-001 1.611778563826690E+002 8.462681251563507E-002 7.065984608440030E+001 
1.230000000000000E+001 9.182219596626534E-002 6.903918671280864E+001 9.922697728312876E-001 1.595083649337176E+002 9.922697728312868E-001 1.595083649337176E+002 9.182219596626558E-002 6.903918671280910E+001 
1.240000000000000E+001 9.893011782396367E-002 6.741373015277171E+001 9.915697937760528E-001 1.578410857251791E+002 9.915697937760525E-001 1.578410857251791E+002 9.893011782396388E-002 6.741373015277193E+001 
1.250000000000000E+001 1.059442813115466E-001 6.578510349462025E+001 9.908286647485168E-001 1.561761597871681E+002 9.908286647485164E-001 1.561761597871681E+002 1.059442813115466E-001 6.578510349462057E+001 
1.260000000000000E+001 1.128585780697917E-001 6.415453468278739E+001 9.900489610088280E-001 1.545137194288311E+002 9.900489610088279E-001 1.545137194288311E+002 1.128585780697919E-001 6.415453468278724E+001 
1.270000000000000E+001 1.196670950387549E-001 6.252297249664587E+001 9.892333784049691E-001 1.528538878215748E+002 9.892333784049699E-001 1.528538878215748E+002 1.196670950387548E-001 6.252297249664547E+001 
1.280000000000000E+001 1.263641205362435E-001 6.089116461629369E+001 9.883847212077089E-001 1.511967786275703E+002 9.883847212077092E-001 1.511967786275703E+002 1.263641205362439E-001 6.089116461629341E+001 
1.290000000000000E+001 1.329441494091893E-001 5.925970989854488E+001 9.875058897238748E-001 1.495424956742118E+002 9.875058897238748E-001 1.495424956742118E+002 1.329441494091890E-001 5.925970989854489E+001 
1.300000000000000E+001 1.394018871942461E-001 5.762909427507734E+001 9.865998677736166E-001 1.478911326748507E+002 9.865998677736168E-001 1.478911326748507E+002 1.394018871942456E-001 5.762909427507737E+001 
1.310000000000000E+001 1.457322532617154E-001 5.599971595989686E+001 9.856697101141750E-001 1.462427729957739E+002 9.856697101141744E-001 1.462427729957739E+002 1.457322532617154E-001 5.599971595989723E+001 
1.320000000000000E+001 1.519303829421209E-001 5.437190350844720E+001 9.847185298888037E-001 1.445974894690725E+002 9.847185298888029E-001 1.445974894690725E+002 1.519303829421211E-001 5.437190350844738E+001 
1.330000000000000E+001 1.579916286528310E-001 5.274592899464003E+001 9.837494861748587E-001 1.429553442507408E+002 9.837494861748588E-001 1.429553442507408E+002 1.579916286528309E-001 5.274592899464006E+001 
1.340000000000000E+001 1.639115600555948E-001 5.112201779063849E+001 9.827657716998069E-001 1.413163887230651E+002 9.827657716998068E-001 1.413163887230651E+002 1.639115600555945E-001 5.112201779063849E+001 
1.350000000000000E+001 1.696859632863794E-001 4.950035594311584E+001 9.817706007882310E-001 1.396806634401085E+002 9.817706007882308E-001 1.396806634401085E+002 1.696859632863792E-001 4.950035594311591E+001 
1.360000000000000E+001 1.753108393071130E-001 4.788109582384827E+001 9.807671975967864E-001 1.380481981148773E+002 9.807671975967869E-001 1.380481981148773E+002 1.753108393071127E-001 4.788109582384814E+001 
1.370000000000000E+001 1.807824014354999E-001 4.626436052501546E+001 9.797587846877571E-001 1.364190116465580E+002 9.797587846877568E-001 1.364190116465580E+002 1.807824014355005E-001 4.626436052501536E+001 
1.380000000000000E+001 1.860970721141667E-001 4.465024733068614E+001 9.787485719853214E-001 1.347931121860495E+002 9.787485719853217E-001 1.347931121860495E+002 1.860970721141667E-001 4.465024733068604E+001 
1.390000000000000E+001 1.912514789842705E-001 4.303883050134832E+001 9.777397461521958E-001 1.331704972378855E+002 9.777397461521964E-001 1.331704972378855E+002 1.912514789842704E-001 4.303883050134809E+001 
1.400000000000000E+001 1.962424503314910E-001 4.143016354286714E+001 9.767354604177700E-001 1.315511537965330E+002 9.767354604177696E-001 1.315511537965330E+002 1.962424503314906E-001 4.143016354286723E+001 
1.410000000000000E+001 2.010670099741526E-001 3.982428108527296E+001 9.757388248825867E-001 1.299350585149823E+002 9.757388248825869E-001 1.299350585149823E+002 2.010670099741524E-001 3.982428108527299E+001 
1.420000000000000E+001 2.057223716641468E-001 3.822120046406954E+001 9.747528973179164E-001 1.283221779034905E+002 9.747528973179165E-001 1.283221779034905E+002 2.057223716641458E-001 3.822120046406950E+001 
1.430000000000000E+001 2.102059330715094E-001 3.662092307319175E+001 9.737806744733432E-001 1.267124685563261E+002 9.737806744733430E-001 1.267124685563261E+002 2.102059330715098E-001 3.662092307319180E+001 
1.440000000000000E+001 2.145152694229667E-001 3.502343554158274E+001 9.728250838998559E-001 1.251058774043527E+002 9.728250838998558E-001 1.251058774043527E+002 2.145152694229665E-001 3.502343554158271E+001 
1.450000000000000E+001 2.186481268636128E-001 3.342871077273420E+001 9.718889762908710E-001 1.235023419913261E+002 9.718889762908715E-001 1.235023419913261E+002 2.186481268636126E-001 3.342871077273409E+001 
1.460000000000000E+001 2.226024156092212E-001 3.183670887717516E+001 9.709751183389676E-001 1.219017907718112E+002 9.709751183389682E-001 1.219017907718112E+002 2.226024156092213E-001 3.183670887717516E+001 
1.470000000000000E+001 2.263762029545446E-001 3.024737802087041E+001 9.700861861019750E-001 1.203041434286926E+002 9.700861861019754E-001 1.203041434286926E+002 2.263762029545448E-001 3.024737802087028E+001 
1.480000000000000E+001 2.299677062004703E-001 2.866065520721282E+001 9.692247588683363E-001 1.187093112083248E+002 9.692247588683368E-001 1.187093112083248E+002 2.299677062004702E-001 2.866065520721284E+001 
1.490000000000000E+001 2.333752855600598E-001 2.707646700628814E+001 9.683933135084755E-001 1.171171972714583E+002 9.683933135084758E-001 1.171171972714583E+002 2.333752855600595E-001 2.707646700628811E+001 
1.500000000000000E+001 2.365974371004842E-001 2.549473024202284E+001 9.675942192961621E-001 1.155276970581749E+002 9.675942192961621E-001 1.155276970581749E+002 2.365974371004852E-001 2.549473024202292E+001 
1.510000000000000E+001 2.396327857745827E-001 2.391535264550416E+001 9.668297331816312E-001 1.139406986651733E+002 9.668297331816317E-001 1.139406986651733E+002 2.396327857745831E-001 2.391535264550408E+001 
1.520000000000000E+001 2.424800785924703E-001 2.233823348094585E+001 9.661019954964392E-001 1.123560832338605E+002 9.661019954964392E-001 1.123560832338605E+002 2.424800785924705E-001 2.233823348094581E+001 
1.530000000000000E+001 2.451381779801682E-001 2.076326414940552E+001 9.654130260687014E-001 1.107737253478177E+002 9.654130260687013E-001 1.107737253478177E+002 2.451381779801682E-001 2.076326414940557E+001 
1.540000000000000E+001 2.476060553687647E-001 1.919032877428331E+001 9.647647207264936E-001 1.091934934383353E+002 9.647647207264930E-001 1.091934934383353E+002 2.476060553687648E-001 1.919032877428333E+001 
1.550000000000000E+001 2.498827850542250E-001 1.761930477181324E+001 9.641588481666839E-001 1.076152501968226E+002 9.641588481666842E-001 1.076152501968226E+002 2.498827850542246E-001 1.761930477181325E+001 
1.560000000000000E+001 2.519675383645030E-001 1.605006340913112E+001 9.635970471663993E-001 1.060388529930256E+002 9.635970471663996E-001 1.060388529930256E+002 2.519675383645024E-001 1.605006340913096E+001 
1.570000000000000E+001 2.538595781673478E-001 1.448247035201074E+001 9.630808241145570E-001 1.044641542980945E+002 9.630808241145569E-001 1.044641542980944E+002 2.538595781673477E-001 1.448247035201080E+001 
1.580000000000000E+001 2.555582537489203E-001 1.291638620399726E+001 9.626115508415047E-001 1.028910021116572E+002 9.626115508415049E-001 1.028910021116572E+002 2.555582537489198E-001 1.291638620399723E+001 
1.590000000000000E+001 2.570629960902091E-001 1.135166703838181E+001 9.621904627256852E-001 1.013192403921643E+002 9.621904627256847E-001 1.013192403921643E+002 2.570629960902091E-001 1.135166703838197E+001 
1.600000000000000E+001 2.583733135652410E-001 9.788164924254826E+000 9.618186570574011E-001 9.974870948986329E+001 9.618186570574007E-001 9.974870948986332E+001 2.583733135652411E-001 9.788164924254771E+000 
1.610000000000000E+001 2.594887880821588E-001 8.225728447716559E+000 9.614970916411559E-001 9.817924658186243E+001 9.614970916411562E-001 9.817924658186243E+001 2.594887880821579E-001 8.225728447716488E+000 
1.620000000000000E+001 2.604090716854633E-001 6.664203229215467E+000 9.612265836196611E-001 9.661068610882023E+001 9.612265836196602E-001 9.661068610882023E+001 2.604090716854632E-001 6.664203229215496E+000 
1.630000000000000E+001 2.611338836350842E-001 5.103432437901590E+000 9.610078085043784E-001 9.504286021287857E+001 9.610078085043780E-001 9.504286021287857E+001 2.611338836350841E-001 5.103432437901509E+000 
1.640000000000000E+001 2.616630079753361E-001 3.543257303832916E+000 9.608412993994765E-001 9.347559917652066E+001 9.608412993994768E-001 9.347559917652067E+001 2.616630079753362E-001 3.543257303832861E+000 
1.650000000000000E+001 2.619962916044118E-001 1.983517628842598E+000 9.607274464080898E-001 9.190873186209306E+001 9.607274464080896E-001 9.190873186209306E+001 2.619962916044114E-001 1.983517628842620E+000 
1.660000000000000E+001 2.621336428526515E-001 4.240522968570348E-001 9.606664962120517E-001 9.034208615177572E+001 9.606664962120519E-001 9.034208615177573E+001 2.621336428526509E-001 4.240522968570263E-001 
1.670000000000000E+001 2.620750305755621E-001 -1.135300215539125E+000 9.606585518185086E-001 8.877548938782283E+001 9.606585518185087E-001 8.877548938782282E+001 2.620750305755626E-001 -1.135300215539111E+000 
1.680000000000000E+001 2.618204837652622E-001 -2.694701327487369E+000 9.607035724691729E-001 8.720876881291676E+001 9.607035724691733E-001 8.720876881291673E+001 2.618204837652626E-001 -2.694701327487343E+000 
1.690000000000000E+001 2.613700916818522E-001 -4.254311840356265E+000 9.608013737103892E-001 8.564175201049739E+001 9.608013737103897E-001 8.564175201049739E+001 2.613700916818521E-001 -4.254311840356245E+000 
1.700000000000000E+001 2.607240045039978E-001 -5.814291421492553E+000 9.609516276245343E-001 8.407426734492695E+001 9.609516276245341E-001 8.407426734492692E+001 2.607240045039984E-001 -5.814291421492587E+000 
1.710000000000000E+001 2.598824344957914E-001 -7.374798084305428E+000 9.611538632257233E-001 8.250614440134432E+001 9.611538632257233E-001 8.250614440134432E+001 2.598824344957909E-001 -7.374798084305408E+000 
1.720000000000000E+001 2.588456576847395E-001 -8.935987663702951E+000 9.614074670251083E-001 8.093721442504429E+001 9.614074670251085E-001 8.093721442504429E+001 2.588456576847392E-001 -8.935987663702914E+000 
1.730000000000000E+001 2.576140160434722E-001 -1.049801328582076E+001 9.617116837734036E-001 7.936731076018377E+001 9.617116837734041E-001 7.936731076018374E+001 2.576140160434719E-001 -1.049801328582076E+001 
1.740000000000000E+001 2.561879201654037E-001 -1.206102483087586E+001 9.620656173904764E-001 7.779626928758047E+001 9.620656173904763E-001 7.779626928758047E+001 2.561879201654037E-001 -1.206102483087586E+001 
1.750000000000000E+001 2.545678524221975E-001 -1.362516838785436E+001 9.624682320940093E-001 7.622392886131333E+001 9.624682320940098E-001 7.622392886131333E+001 2.545678524221973E-001 -1.362516838785428E+001 
1.760000000000000E+001 2.527543705883894E-001 -1.519058569957319E+001 9.629183537412314E-001 7.465013174377688E+001 9.629183537412316E-001 7.465013174377690E+001 2.527543705883891E-001 -1.519058569957316E+001 
1.770000000000000E+001 2.507481119159194E-001 -1.675741359645248E+001 9.634146713995861E-001 7.307472403876859E+001 9.634146713995861E-001 7.307472403876861E+001 2.507481119159199E-001 -1.675741359645248E+001 
1.780000000000000E+001 2.485497976386354E-001 -1.832578341707284E+001 9.639557391639002E-001 7.149755612210672E+001 9.639557391639008E-001 7.149755612210672E+001 2.485497976386353E-001 -1.832578341707279E+001 
1.790000000000000E+001 2.461602378839883E-001 -1.989582041326119E+001 9.645399782391004E-001 6.991848306919208E+001 9.645399782391003E-001 6.991848306919208E+001 2.461602378839889E-001 -1.989582041326111E+001 
1.800000000000000E+001 2.435803369662434E-001 -2.146764313703260E+001 9.651656793087822E-001 6.833736507882659E+001 9.651656793087816E-001 6.833736507882659E+001 2.435803369662435E-001 -2.146764313703264E+001 
1.810000000000000E+001 2.408110990324362E-001 -2.304136280618461E+001 9.658310052109516E-001 6.675406789250114E+001 9.658310052109520E-001 6.675406789250111E+001 2.408110990324366E-001 -2.304136280618461E+001 
1.820000000000000E+001 2.378536340292000E-001 -2.461708264467131E+001 9.665339939429644E-001 6.516846320825549E+001 9.665339939429648E-001 6.516846320825549E+001 2.378536340291999E-001 -2.461708264467134E+001 
1.830000000000000E+001 2.347091639552860E-001 -2.619489719303491E+001 9.672725620180950E-001 6.358042908810141E+001 9.672725620180955E-001 6.358042908810141E+001 2.347091639552867E-001 -2.619489719303483E+001 
1.840000000000000E+001 2.313790293613448E-001 -2.777489158308892E+001 9.680445081962307E-001 6.198985035788142E+001 9.680445081962307E-001 6.198985035788139E+001 2.313790293613449E-001 -2.777489158308890E+001 
1.850000000000000E+001 2.278646960550944E-001 -2.935714076967742E+001 9.688475176108945E-001 6.039661899831935E+001 9.688475176108943E-001 6.039661899831933E+001 2.278646960550948E-001 -2.935714076967748E+001 
1.860000000000000E+001 2.241677619666524E-001 -3.094170871057869E+001 9.696791663140623E-001 5.880063452589766E+001 9.696791663140622E-001 5.880063452589769E+001 2.241677619666520E-001 -3.094170871057865E+001 
1.870000000000000E+001 2.202899641254124E-001 -3.252864748337773E+001 9.705369262591644E-001 5.720180436208258E+001 9.705369262591643E-001 5.720180436208262E+001 2.202899641254117E-001 -3.252864748337790E+001 
1.880000000000000E+001 2.162331856965196E-001 -3.411799632525899E+001 9.714181707410555E-001 5.560004418929911E+001 9.714181707410554E-001 5.560004418929913E+001 2.162331856965190E-001 -3.411799632525913E+001 
1.890000000000000E+001 2.119994630217872E-001 -3.570978057795420E+001 9.723201803097624E-001 5.399527829195378E+001 9.723201803097621E-001 5.399527829195379E+001 2.119994630217868E-001 -3.570978057795426E+001 
1.900000000000000E+001 2.075909926068368E-001 -3.730401051528351E+001 9.732401491722909E-001 5.238743988069709E+001 9.732401491722915E-001 5.238743988069707E+001 2.075909926068366E-001 -3.730401051528335E+001 
1.910000000000000E+001 2.030101379934264E-001 -3.890068002446908E+001 9.741751920938353E-001 5.077647139802761E+001 9.741751920938360E-001 5.077647139802762E+001 2.030101379934267E-001 -3.890068002446890E+001 
1.920000000000000E+001 1.982594364533685E-001 -4.049976510421291E+001 9.751223518062637E-001 4.916232480325788E+001 9.751223518062631E-001 4.916232480325788E+001 1.982594364533682E-001 -4.049976510421308E+001 
1.930000000000000E+001 1.933416054382934E-001 -4.210122213172420E+001 9.760786069278440E-001 4.754496183479442E+001 9.760786069278444E-001 4.754496183479444E+001 1.933416054382931E-001 -4.210122213172420E+001 
