! Touchstone file from project SNStest
! Exported from Ansoft 
# GHZ S MA R 50.000000
! Modal data exported
! Port[1] = Port1
! Port[2] = Port2
1.000000000000000E+001 1.110121636760833E-001 1.711533233726010E+001 1.442220036728522E+001 -1.287343945105976E+002 0.000000000000000E+000 0.000000000000000E+000 2.728248244897871E-001 1.826648619711772E+001 
1.010000000000000E+001 1.163751157782249E-001 1.612860403827494E+001 1.439622373385383E+001 -1.335183903088260E+002 5.471814023200666E-018 -1.015225047169350E+002 2.749493096968753E-001 1.655855250141542E+001 
1.020000000000000E+001 1.213164730703328E-001 1.492928158199202E+001 1.437202891078294E+001 -1.382937615938317E+002 4.940259442920262E-018 -9.320876880449694E+001 2.768672948588457E-001 1.485485811116944E+001 
1.030000000000000E+001 1.257996921348828E-001 1.356056338322819E+001 1.434980860586931E+001 -1.430611425987361E+002 5.571002958023883E-018 -1.523231358858261E+002 2.785782543162824E-001 1.315495182576903E+001 
1.040000000000000E+001 1.297954598057375E-001 1.205685490301519E+001 1.432973853613762E+001 -1.478212449840715E+002 5.614166046801166E-018 1.588241660248171E+002 2.800817373299807E-001 1.145839225265108E+001 
1.050000000000000E+001 1.332802354272882E-001 1.044596775000522E+001 1.431197602365027E+001 -1.525748504174141E+002 3.154920040593016E-018 -1.140615503575964E+002 2.813773626265276E-001 9.764746271073268E+000 
1.060000000000000E+001 1.362352072048489E-001 8.750768605485749E+000 1.429665879884611E+001 -1.573228025969985E+002 1.141964219400082E-017 1.690256035025212E+002 2.824648135737318E-001 8.073587673829930E+000 
1.070000000000000E+001 1.386455383308892E-001 6.990429290644034E+000 1.428390400103956E+001 -1.620659988125958E+002 2.834167482308853E-018 1.643241097310903E+002 2.833438339978385E-001 6.384495955798376E+000 
1.080000000000000E+001 1.404998210772440E-001 5.181391091607460E+000 1.427380736476521E+001 -1.668053811297220E+002 6.016100064638122E-018 -1.725480354638359E+002 2.840142246526646E-001 4.697055222006468E+000 
1.090000000000000E+001 1.417896850006471E-001 3.338126939268746E+000 1.426644258071422E+001 -1.715419272759596E+002 1.157563621116610E-017 -1.776245794963296E+002 2.844758403489196E-001 3.010853190947977E+000 
1.100000000000000E+001 1.425095239927222E-001 1.473763660062247E+000 1.426186082095077E+001 -1.762766413013458E+002 8.926054842539738E-020 -9.324579506901888E+001 2.847285877502578E-001 1.325480271246097E+000 
1.110000000000000E+001 1.426563195307731E-001 -3.993882790394413E-001 1.426009041976738E+001 1.789894559211226E+002 1.116161912473078E-019 9.088100490703987E+001 2.847724238408866E-001 -3.594713084382752E-001 
1.120000000000000E+001 1.422295464015753E-001 -2.269359788621129E+000 1.426113670377721E+001 1.742553362934613E+002 5.886125783830959E-018 1.709729887477683E+002 2.846073550678827E-001 -2.044408335067537E+000 
1.130000000000000E+001 1.412311538969877E-001 -4.124070864096055E+000 1.426498196747688E+001 1.695199741308348E+002 2.671697715639698E-018 9.914471654621589E+001 2.842334371597497E-001 -3.729737430454214E+000 
1.140000000000000E+001 1.396656211101256E-001 -5.950871249279172E+000 1.427158559336771E+001 1.647823557829399E+002 2.928741297532286E-018 1.792570130725497E+002 2.836507756211336E-001 -5.415865871669409E+000 
1.150000000000000E+001 1.375400903753349E-001 -7.736043628477122E+000 1.428088431862218E+001 1.600414891813247E+002 1.414870756315754E-018 1.074605941097912E+002 2.828595269019821E-001 -7.103202430295728E+000 
1.160000000000000E+001 1.348645889327678E-001 -9.464235108081077E+000 1.429279265304573E+001 1.552964132531924E+002 6.145831208851163E-018 1.780230080204855E+002 2.818599002378489E-001 -8.792158248663275E+000 
1.170000000000000E+001 1.316523565158289E-001 -1.111777536543726E+001 1.430720345553272E+001 1.505462071384573E+002 6.995136273108757E-019 1.158741695783113E+002 2.806521601563161E-001 -1.048314777212746E+001 
1.180000000000000E+001 1.279203070164827E-001 -1.267582803701656E+001 1.432398867818527E+001 1.457899991416292E+002 5.599788923047427E-018 1.498762081585712E+002 2.792366296428768E-001 -1.217658975784681E+001 
1.190000000000000E+001 1.236896674895949E-001 -1.411330444864538E+001 1.434300028857852E+001 1.410269753438093E+002 4.411993115396698E-018 1.630888452525100E+002 2.776136939577998E-001 -1.387290838244244E+001 
1.200000000000000E+001 1.189868602259831E-001 -1.539944417376393E+001 1.436407138117109E+001 1.362563877930851E+002 3.414914315566148E-018 1.287722250352728E+002 2.757838050937034E-001 -1.557253447344347E+001 
1.210000000000000E+001 1.138447275664948E-001 -1.649593402201785E+001 1.438701748843272E+001 1.314775621844165E+002 1.352943544250082E-018 1.331655011565664E+002 2.737474868616789E-001 -1.727590689262933E+001 
1.220000000000000E+001 1.083042506731283E-001 -1.735439704449099E+001 1.441163810078152E+001 1.266899049332677E+002 5.720868895709031E-018 6.816913718535487E+001 2.715053405918491E-001 -1.898347410339977E+001 
1.230000000000000E+001 1.024169912350900E-001 -1.791304461419445E+001 1.443771840181233E+001 1.218929095413885E+002 9.202019564823263E-018 -1.581376732246326E+002 2.690580514322919E-001 -2.069569595928591E+001 
1.240000000000000E+001 9.624859941890097E-002 -1.809227730200907E+001 1.446503122152195E+001 1.170861621489576E+002 5.239589797662375E-018 1.466857401372446E+002 2.664063952282795E-001 -2.241304575686484E+001 
1.250000000000000E+001 8.988388877933484E-002 -1.778912844824380E+001 1.449333920531101E+001 1.122693461654515E+002 5.790329462830192E-018 8.788166330601098E+001 2.635512459618357E-001 -2.413601260391165E+001 
1.260000000000000E+001 8.343416096132311E-002 -1.687088444898886E+001 1.452239719055255E+001 1.074422458727443E+002 2.861045621909413E-018 9.257830123912925E+001 2.604935837298323E-001 -2.586510416294507E+001 
1.270000000000000E+001 7.704756183521226E-002 -1.516949397801547E+001 1.455195477561344E+001 1.026047488986917E+002 5.212799799598509E-018 5.674047143419330E+001 2.572345032372005E-001 -2.760084984181671E+001 
1.280000000000000E+001 7.092289751950243E-002 -1.248151814726716E+001 1.458175905862452E+001 9.775684746827753E+001 1.249295370377555E-018 1.656071778999466E+002 2.537752227805822E-001 -2.934380451720852E+001 
1.290000000000000E+001 6.532554717610109E-002 -8.584824205171776E+000 1.461155751532072E+001 9.289863835264896E+001 3.492187631104485E-018 1.255038532603252E+002 2.501170936969551E-001 -3.109455289453335E+001 
1.300000000000000E+001 6.059891943935947E-002 -3.292591983233150E+000 1.464110097727826E+001 8.803032145417221E+001 2.441156903945420E-018 -4.535049429193608E+000 2.462616102517145E-001 -3.285371462969836E+001 
1.310000000000000E+001 5.715466247108597E-002 3.433526229153579E+000 1.467014666428734E+001 8.315219698787962E+001 2.414291193702612E-018 9.048765364032848E+001 2.422104199416240E-001 -3.462195036569689E+001 
1.320000000000000E+001 5.541560294361634E-002 1.132950355476506E+001 1.469846121786480E+001 7.826466124600776E+001 3.378560088874699E-018 1.405681318207599E+002 2.379653341903677E-001 -3.639996887159452E+001 
1.330000000000000E+001 5.570200224058751E-002 1.975433024017377E+001 1.472582367749278E+001 7.336820096205928E+001 2.644719402961055E-018 7.413653734823235E+001 2.335283394186066E-001 -3.818853551527637E+001 
1.340000000000000E+001 5.811325102690879E-002 2.785302595028103E+001 1.475202833749520E+001 6.846338632304845E+001 7.504429705261070E-018 5.454215775253285E+001 2.289016084770952E-001 -3.998848235710031E+001 
1.350000000000000E+001 6.249911222672059E-002 3.489958726478434E+001 1.477688742090797E+001 6.355086271213768E+001 2.324585875327398E-018 2.110399054689484E+001 2.240875124414558E-001 -4.180072022308731E+001 
1.360000000000000E+001 6.854386914448446E-002 4.052818359805725E+001 1.480023350752551E+001 5.863134129736656E+001 6.526295083123232E-018 7.135950117070811E+001 2.190886327816680E-001 -4.362625320855749E+001 
1.370000000000000E+001 7.588494523136559E-002 4.471087687480793E+001 1.482192165667729E+001 5.370558861415317E+001 2.292467450711252E-018 1.216414772220691E+002 2.139077739398553E-001 -4.546619618308937E+001 
1.380000000000000E+001 8.419146965017277E-002 4.760852114437435E+001 1.484183117118759E+001 4.877441531817915E+001 6.138596734434443E-018 5.874374230865889E+001 2.085479763785209E-001 -4.732179602489101E+001 
1.390000000000000E+001 9.319204542176381E-002 4.944146897375505E+001 1.485986695725812E+001 4.383866430974783E+001 3.209435124910564E-018 -2.745480278645321E+000 2.030125302009260E-001 -4.919445752036938E+001 
1.400000000000000E+001 1.026733397268441E-001 5.042121179901592E+001 1.487596044535921E+001 3.889919844944394E+001 3.391777941063330E-018 4.757074141809067E+001 1.973049894997875E-001 -5.108577514151627E+001 
1.410000000000000E+001 1.124688007445884E-001 5.072601791881150E+001 1.489007004917575E+001 3.395688809695303E+001 2.521199620842877E-018 2.631909864177341E+001 1.914291876656145E-001 -5.299757228610663E+001 
1.420000000000000E+001 1.224467969875842E-001 5.049791617971857E+001 1.490218115265799E+001 2.901259870956010E+001 3.376218449775249E-018 -3.181148607857657E+001 1.853892539897544E-001 -5.493195007161000E+001 
1.430000000000000E+001 1.325010904815997E-001 4.984743359045790E+001 1.491230562864175E+001 2.406717873390798E+001 2.248375879381079E-018 6.347835269883448E+001 1.791896320415737E-001 -5.689134846823441E+001 
1.440000000000000E+001 1.425439116966865E-001 4.885997821580735E+001 1.492048090566201E+001 1.912144801418355E+001 2.512830655660689E-018 5.314078787390133E+000 1.728351005011695E-001 -5.887862352075166E+001 
1.450000000000000E+001 1.525011319619033E-001 4.760165002076037E+001 1.492676861185389E+001 1.417618692264142E+001 3.554602910541027E-018 5.556184470503102E+001 1.663307974147714E-001 -6.089714576349462E+001 
1.460000000000000E+001 1.623089499663026E-001 4.612391497129141E+001 1.493125283564331E+001 9.232126395124228E+000 4.056124886909975E-018 4.552874239636243E+001 1.596822492485781E-001 -6.295092686091513E+001 
1.470000000000000E+001 1.719116213079018E-001 4.446717620871435E+001 1.493403805182045E+001 4.289939026271108E+000 4.061225394330908E-018 -3.927695093169703E+001 1.528954067090701E-001 -6.504478428780681E+001 
1.480000000000000E+001 1.812598920216930E-001 4.266344375600853E+001 1.493524676823516E+001 -6.497686522197418E-001 4.067824460692414E-018 -3.411148761468915E+001 1.459766901690664E-001 -6.718455793647247E+001 
1.490000000000000E+001 1.903099031857785E-001 4.073831579014809E+001 1.493501695258616E+001 -5.586462620056602E+000 4.795731340785448E-018 -4.028518361597707E+001 1.389330488418464E-001 -6.937739859768654E+001 
1.500000000000000E+001 1.990224097384601E-001 3.871244964524250E+001 1.493349930057578E+001 -1.051968648683315E+001 2.265507447377875E-018 9.822100586476397E+000 1.317720398301879E-001 -7.163215743248516E+001 
1.510000000000000E+001 2.073622086538847E-001 3.660265921662617E+001 1.493085440619281E+001 -1.544906525623793E+001 4.680954436988778E-018 2.893750750705432E+001 1.245019362606280E-001 -7.395991968724169E+001 
1.520000000000000E+001 2.152977066008479E-001 3.442273969434155E+001 1.492724989231394E+001 -2.037430774189062E+001 2.544478995403086E-018 -6.611460261180939E+000 1.171318786096180E-001 -7.637474813008508E+001 
1.530000000000000E+001 2.228005806419639E-001 3.218409292705607E+001 1.492285755551740E+001 -2.529520766761399E+001 5.100791327646708E-018 -3.845423334800185E+001 1.096720912911888E-001 -7.889473738547187E+001 
1.540000000000000E+001 2.298455012701063E-001 2.989620634441987E+001 1.491785057337663E+001 -3.021164350790076E+001 5.829099605884295E-018 -4.870554243534402E+001 1.021341998677751E-001 -8.154353900472364E+001 
1.550000000000000E+001 2.364098977033573E-001 2.756702366264286E+001 1.491240081597577E+001 -3.512357714290241E+001 5.980755017728733E-018 -3.833368398390861E+001 9.453170707463542E-002 -8.435261585841191E+001 
1.560000000000000E+001 2.424737525633595E-001 2.520323508074889E+001 1.490667629638154E+001 -4.003105141626111E+001 3.447305110596232E-018 -5.245544977876781E+001 8.688072629492150E-002 -8.736465488755442E+001 
1.570000000000000E+001 2.480194179557837E-001 2.281050716739996E+001 1.490083878771543E+001 -4.493418669367176E+001 4.628843991741562E-018 -5.136496265026693E+001 7.920114524280114E-002 -9.063886893565227E+001 
1.580000000000000E+001 2.530314482877635E-001 2.039366726976480E+001 1.489504162763518E+001 -4.983317652544656E+001 3.622125752932479E-018 -5.754545459202770E+001 7.151853344317329E-002 -9.425946469466304E+001 
1.590000000000000E+001 2.574964473833213E-001 1.795685342250715E+001 1.488942772474874E+001 -5.472828251806495E+001 2.326527797791475E-018 -4.239761560245589E+001 6.386738493547693E-002 -9.834955876520340E+001 
1.600000000000000E+001 2.614029289238066E-001 1.550363795593080E+001 1.488412777595078E+001 -5.961982851830776E+001 4.589743700462417E-018 -5.854319820464017E+001 5.629685608289665E-002 -1.030946656394210E+002 
1.610000000000000E+001 2.647411901722184E-001 1.303713098842460E+001 1.487925869904899E+001 -6.450819420973461E+001 4.738921744056934E-018 -5.672936055460028E+001 4.888135474045457E-002 -1.087830623917736E+002 
1.620000000000000E+001 2.675031994955984E-001 1.056006852290448E+001 1.487492228140256E+001 -6.939380821568594E+001 4.305822396638671E-018 -6.830027162427946E+001 4.174085757328614E-002 -1.158745100782822E+002 
1.630000000000000E+001 2.696824984897971E-001 8.074888797921258E+000 1.487120404265569E+001 -7.427714079633570E+001 4.674220991903949E-018 -7.594314425067648E+001 3.508069161686472E-002 -1.251063467036214E+002 
1.640000000000000E+001 2.712741196149481E-001 5.583799764656032E+000 1.486817230797173E+001 -7.915869622023439E+001 7.175836878686021E-018 -8.677011311481010E+001 2.926598717931156E-002 -1.375901031919655E+002 
1.650000000000000E+001 2.722745202251092E-001 3.088839996007395E+000 1.486587748738773E+001 -8.403900488386120E+001 7.085928446006593E-018 -8.530792285362726E+001 2.492632680360964E-002 -1.545655370931837E+002 
1.660000000000000E+001 2.726815337625407E-001 5.919349307411708E-001 1.486435155689476E+001 -8.891861524643866E+001 4.645815250578840E-018 -8.948408981383059E+001 2.293598841809581E-002 -1.759143237939564E+002 
1.670000000000000E+001 2.724943387158108E-001 -1.905049922261758E+000 1.486360773747338E+001 -9.379808564207775E+001 6.701186616999750E-018 -9.114323423521844E+001 2.389725729305937E-002 1.618535151310969E+002 
1.680000000000000E+001 2.717134457328428E-001 -4.400257371803404E+000 1.486364036941003E+001 -9.867797602755660E+001 1.946767929049215E-018 -1.078607015736747E+002 2.749871179015605E-002 1.431479032123040E+002 
1.690000000000000E+001 2.703407030515062E-001 -6.891787168114574E+000 1.486442498062626E+001 -1.035588397218715E+002 2.265708684035966E-018 -1.162211325552153E+002 3.287237100146216E-002 1.291786745862928E+002 
1.700000000000000E+001 2.683793201743136E-001 -9.377643520712935E+000 1.486591854927906E+001 -1.084412151933147E+002 3.241432303585228E-018 -1.349668304704125E+002 3.928091420534559E-002 1.189302219084603E+002 
1.710000000000000E+001 2.658339094821024E-001 -1.185568010655753E+001 1.486805996236593E+001 -1.133256179511927E+002 4.306583768376528E-018 -1.089168734265615E+002 4.627621675839425E-002 1.111759900046883E+002 
1.720000000000000E+001 2.627105452665062E-001 -1.432354102131128E+001 1.487077067330405E+001 -1.182125326023584E+002 4.632724376531940E-018 -1.004077484092955E+002 5.360654485834988E-002 1.050503953671231E+002 
1.730000000000000E+001 2.590168394773906E-001 -1.677859588957052E+001 1.487395556228091E+001 -1.231024051372851E+002 4.292919753578187E-018 -1.107462171339386E+002 6.112739489873939E-002 1.000082765759268E+002 
1.740000000000000E+001 2.547620333485551E-001 -1.921786699888042E+001 1.487750400342724E+001 -1.279956355161734E+002 4.860837947338754E-018 -1.237651378943324E+002 6.875112880228275E-002 9.570976558930599E+001 
1.750000000000000E+001 2.499571040091875E-001 -2.163794582615768E+001 1.488129114240036E+001 -1.328925706321934E+002 4.618240789008534E-018 -1.401360694791708E+002 7.642114290579126E-002 9.193839785627692E+001 
1.760000000000000E+001 2.446148852460236E-001 -2.403489563856087E+001 1.488517938666112E+001 -1.377934977359118E+002 5.024663218470044E-018 -1.556960641363594E+002 8.409854969375852E-002 8.855210449090313E+001 
1.770000000000000E+001 2.387502018020474E-001 -2.640413590937044E+001 1.488902010849392E+001 -1.426986384117312E+002 5.743432746619013E-018 -1.639814866831278E+002 9.175506700427356E-002 8.545473706255349E+001 
1.780000000000000E+001 2.323800170518000E-001 -2.874030300141283E+001 1.489265555760451E+001 -1.476081432031280E+002 4.133366270462835E-018 -1.558284601441500E+002 9.936905916718386E-002 8.257933169542959E+001 
1.790000000000000E+001 2.255235946781906E-001 -3.103707980610504E+001 1.489592097593422E+001 -1.525220869879398E+002 1.143990613473253E-018 1.528550431526867E+002 1.069232405178773E-001 7.987802645234795E+001 
1.800000000000000E+001 2.182026762283421E-001 -3.328698460101063E+001 1.489864690220683E+001 -1.574404652072953E+002 2.552547100985556E-018 -8.556415095948445E+001 1.144032919152455E-001 7.731581261604146E+001 
1.810000000000000E+001 2.104416783420050E-001 -3.548110604113327E+001 1.490066164779735E+001 -1.623631910512595E+002 5.094081712217585E-018 -1.336542338312420E+002 1.217969984742445E-001 7.486655141099203E+001 
1.820000000000000E+001 2.022679163077281E-001 -3.760876655789918E+001 1.490179391896641E+001 -1.672900937003332E+002 5.239762122860015E-018 -1.514218756187838E+002 1.290936955614013E-001 7.251036639548119E+001 
1.830000000000000E+001 1.937118648235719E-001 -3.965708998153610E+001 1.490187555359544E+001 -1.722209177140489E+002 6.614521242045302E-018 -1.278935041735400E+002 1.362839029734625E-001 7.023189397974636E+001 
1.840000000000000E+001 1.848074730366245E-001 -4.161044019947691E+001 1.490074433360995E+001 -1.771553236456968E+002 2.531898796419613E-018 -1.552428568559541E+002 1.433590772587979E-001 6.801908302979378E+001 
1.850000000000000E+001 1.755925600352349E-001 -4.344968513212636E+001 1.489824682765671E+001 1.779071100544789E+002 2.527883652483781E-018 -1.132222093601154E+002 1.503114400535461E-001 6.586235422159912E+001 
1.860000000000000E+001 1.661093303721001E-001 -4.515122299713287E+001 1.489424121271996E+001 1.729668838064038E+002 3.387253669382520E-018 -1.714776199705695E+002 1.571338563813352E-001 6.375400029076315E+001 
1.870000000000000E+001 1.564050690247976E-001 -4.668568436373352E+001 1.488860001863681E+001 1.680245723216460E+002 2.522589540933744E-018 -1.397050741355878E+002 1.638197464016425E-001 6.168775085127675E+001 
1.880000000000000E+001 1.465331046120612E-001 -4.801619293791084E+001 1.488121273631030E+001 1.630808186919981E+002 6.859876786904060E-018 1.184260241418423E+002 1.703630199027569E-001 5.965845172415914E+001 
1.890000000000000E+001 1.365541732065959E-001 -4.909603164847924E+001 1.487198822917537E+001 1.581363271893299E+002 5.640218858729171E-018 1.142213838681554E+002 1.767580264643340E-001 5.766182529845772E+001 
1.900000000000000E+001 1.265383786200945E-001 -4.986552671238609E+001 1.486085688842599E+001 1.531918548537506E+002 5.757266530318328E-018 1.308094855592588E+002 1.829995165326635E-001 5.569428912996501E+001 
1.910000000000000E+001 1.165680344200429E-001 -5.024795847855478E+001 1.484777247582701E+001 1.482482019802331E+002 2.261989243710219E-018 1.247939501121134E+002 1.890826101631791E-001 5.375281699692645E+001 
1.920000000000000E+001 1.067417876888621E-001 -5.014441047244326E+001 1.483271360364879E+001 1.433062016456850E+002 1.133831647303341E-018 1.300994586477444E+002 1.950027711890530E-001 5.183483131856709E+001 
1.930000000000000E+001 9.718053750268893E-002 -4.942787015111178E+001 1.481568480925994E+001 1.383667084475597E+002 3.413026887775929E-018 1.354101813878123E+002 2.007557852534076E-001 4.993811902521589E+001 
